!MGA-62563
!s-parameters at Vd=5V, Id=60mA. Last updated 24/09/03 AR.

# GHZ S MA R 50

0.1	0.205	-67.1	13.65	155.3	0.042	1.9	0.049	-153.8
0.2	0.201	-74.6	13.19	152.7	0.042	1.6	0.05	-163.0
0.3	0.201	-82.8	12.70	149.8	0.041	1.4	0.052	-171.5
0.4	0.204	-91.4	12.19	146.7	0.041	1.2	0.054	-179.4
0.5	0.212	-100.6	11.62	143.0	0.04	1.3	0.057	172.8
0.6	0.224	-109.0	11.09	139.1	0.039	1.4	0.059	166.0
0.7	0.238	-116.8	10.58	134.8	0.039	1.7	0.06	159.8
0.8	0.256	-124.0	10.09	130.0	0.038	2.2	0.061	154.7
0.9	0.276	-130.1	9.66	124.8	0.037	2.9	0.061	150.6
1.0	0.297	-135.4	9.26	119.6	0.037	3.9	0.059	149.1
1.1	0.317	-140.7	8.83	114.3	0.036	5.3	0.056	149.5
1.2	0.334	-145.4	8.44	109.5	0.036	6.9	0.054	151.5
1.3	0.345	-148.8	8.05	105.1	0.036	8.7	0.046	152.6
1.4	0.352	-151.4	7.68	100.9	0.036	10.7	0.033	154.3
1.5	0.358	-153.9	7.33	96.9	0.036	12.7	0.021	162.7
1.6	0.365	-156.9	6.99	93.2	0.037	14.7	0.011	179.0
1.7	0.368	-160.1	6.65	89.5	0.038	16.7	0.008	-95.9
1.8	0.37	-163.3	6.35	86.2	0.038	18.5	0.018	-66.4
1.9	0.37	-166.5	6.08	83.0	0.039	20.1	0.029	-59.7
2.0	0.368	-169.6	5.83	80.0	0.041	21.7	0.038	-56.9
2.1	0.366	-172.7	5.60	77.1	0.042	23.0	0.048	-55.4
2.2	0.363	-175.7	5.39	74.3	0.043	24.2	0.056	-54.6
2.3	0.361	-178.8	5.18	71.4	0.045	25.3	0.065	-53.4
2.4	0.361	178.3	5.00	68.6	0.047	26.1	0.073	-52.3
2.5	0.363	175.0	4.83	65.9	0.049	26.7	0.081	-52.1
2.6	0.364	170.9	4.68	63.2	0.05	27.0	0.088	-51.4
2.7	0.361	166.7	4.53	60.5	0.052	27.2	0.096	-50.4
2.8	0.357	162.7	4.38	57.9	0.054	27.3	0.105	-50.5
2.9	0.351	159.1	4.24	55.3	0.056	27.4	0.113	-52.2
3.0	0.348	155.9	4.12	52.9	0.058	27.4	0.114	-52.8
3.1	0.345	153.3	4.03	50.4	0.061	27.4	0.117	-50.4
3.2	0.347	151.1	3.95	47.5	0.064	26.7	0.125	-48.9
3.3	0.355	148.7	3.85	44.6	0.066	25.7	0.132	-48.7
3.4	0.363	145.7	3.74	41.8	0.068	24.7	0.139	-49.1
3.5	0.371	142.7	3.64	39.1	0.07	23.8	0.145	-49.9
3.6	0.38	139.4	3.54	36.3	0.072	22.9	0.149	-51.0
3.7	0.389	136.2	3.45	33.7	0.074	22.2	0.15	-52.0
3.8	0.395	133.4	3.37	31.2	0.076	21.5	0.151	-52.5
3.9	0.403	131.1	3.30	28.6	0.078	20.7	0.15	-52.4
4.0	0.413	128.5	3.24	25.8	0.08	19.7	0.151	-51.7
4.1	0.42	126.5	3.17	23.0	0.083	18.4	0.153	-51.4
4.2	0.431	125.1	3.10	20.0	0.085	17.1	0.155	-51.9
4.3	0.447	124.2	3.03	17.1	0.087	15.8	0.155	-52.3
4.4	0.47	123.0	2.96	14.4	0.088	14.5	0.156	-52.3
4.5	0.498	121.1	2.90	11.6	0.09	13.8	0.161	-53.5
4.6	0.528	118.1	2.84	8.6	0.093	12.8	0.163	-56.7
4.7	0.546	114.4	2.76	5.8	0.095	11.7	0.16	-60.9
4.8	0.553	111.0	2.69	3.1	0.098	10.5	0.151	-65.1
4.9	0.558	109.1	2.63	0.5	0.1	9.0	0.139	-66.9
5.0	0.568	107.4	2.58	-2.1	0.103	7.3	0.13	-66.6
5.1	0.577	105.7	2.51	-4.9	0.104	5.6	0.127	-64.8
5.2	0.586	104.3	2.44	-7.3	0.106	4.4	0.134	-66.4
5.3	0.601	103.1	2.39	-9.3	0.108	2.9	0.136	-73.1
5.4	0.62	101.1	2.34	-11.6	0.11	1.0	0.132	-81.0
5.5	0.631	99.0	2.30	-13.8	0.111	-0.4	0.126	-88.5
5.6	0.641	97.1	2.26	-15.8	0.112	-1.5	0.121	-97.1
5.7	0.651	95.1	2.23	-17.7	0.114	-2.4	0.117	-106.9
5.8	0.659	92.9	2.22	-19.7	0.116	-3.3	0.113	-118.4
5.9	0.664	90.7	2.21	-22.0	0.119	-4.4	0.111	-131.7
6.0	0.665	88.1	2.20	-25.2	0.123	-6.6	0.106	-146.8
6.1	0.657	86.1	2.15	-28.1	0.124	-8.8	0.106	-160.0
6.2	0.655	84.9	2.11	-30.5	0.124	-10.6	0.105	-173.3
6.3	0.659	83.5	2.07	-32.7	0.125	-12.1	0.104	176.7
6.4	0.664	81.7	2.04	-34.6	0.125	-13.3	0.108	170.3
6.5	0.667	79.6	2.01	-36.4	0.126	-14.2	0.118	165.0
6.6	0.669	77.5	2.00	-38.0	0.129	-15.3	0.137	159.0
6.7	0.671	75.3	2.02	-40.2	0.131	-16.8	0.156	149.8
6.8	0.671	72.9	2.02	-43.1	0.132	-18.3	0.167	140.8
6.9	0.667	70.6	2.00	-45.9	0.134	-19.5	0.175	134.2
7.0	0.664	68.4	1.98	-48.6	0.136	-20.8	0.182	128.9
7.1	0.661	66.3	1.96	-51.4	0.139	-22.4	0.19	124.3
7.2	0.659	64.2	1.94	-54.1	0.141	-24.1	0.198	119.9
7.3	0.658	61.9	1.90	-56.9	0.143	-26.1	0.204	115.5
7.4	0.657	59.5	1.87	-59.4	0.144	-28.0	0.207	111.6
7.5	0.655	57.3	1.83	-61.4	0.144	-29.5	0.209	109.0
7.6	0.653	55.1	1.80	-63.1	0.145	-30.9	0.211	107.0
7.7	0.651	53.0	1.78	-64.9	0.147	-32.3	0.215	105.2
7.8	0.651	50.9	1.77	-66.8	0.149	-33.9	0.22	103.3
7.9	0.652	48.8	1.76	-68.8	0.151	-35.5	0.224	101.2
8.0	0.653	47.0	1.75	-70.8	0.153	-37.3	0.228	99.2
8.1	0.656	45.1	1.74	-72.9	0.154	-39.1	0.231	97.2
8.2	0.661	43.3	1.73	-74.9	0.156	-40.9	0.235	95.2
8.3	0.668	41.4	1.72	-76.9	0.157	-42.7	0.238	93.0
8.4	0.675	39.4	1.71	-79.0	0.159	-44.6	0.24	90.9
8.5	0.682	37.1	1.70	-81.2	0.16	-46.7	0.244	88.6
8.6	0.686	35.0	1.69	-83.3	0.16	-48.6	0.248	86.2
8.7	0.69	33.0	1.68	-85.3	0.161	-50.3	0.251	83.4
8.8	0.694	31.3	1.66	-87.3	0.161	-52.0	0.254	80.4
8.9	0.698	29.7	1.65	-89.2	0.162	-53.5	0.257	77.2
9.0	0.703	28.2	1.64	-91.0	0.163	-55.1	0.259	73.9
9.1	0.71	26.7	1.63	-92.9	0.164	-56.9	0.261	70.4
9.2	0.719	25.5	1.63	-94.8	0.164	-58.7	0.264	67.1
9.3	0.729	24.1	1.62	-96.7	0.165	-60.4	0.268	63.7
9.4	0.74	22.8	1.61	-98.6	0.165	-61.9	0.271	60.5
9.5	0.749	21.4	1.61	-100.4	0.165	-63.4	0.276	57.5
9.6	0.756	20.2	1.60	-102.0	0.165	-64.7	0.282	54.5
9.7	0.762	19.0	1.59	-103.5	0.164	-65.8	0.286	51.5
9.8	0.766	18.0	1.58	-104.8	0.164	-66.8	0.29	49.0
9.9	0.769	17.3	1.57	-105.9	0.164	-67.6	0.293	46.8
10.0	0.772	16.7	1.56	-106.8	0.164	-68.2	0.297	44.8
